Freq.	V(n004)
6.00000000000000e+001	(-9.52485807584809e+001dB,-1.30442475539446e+002°)
6.47865097396626e+001	(-6.74447068627654e+001dB,-1.35693387302045e+002°)
6.99548640707899e+001	(-5.69308237715144e+001dB,-1.40921406285670e+002°)
7.55355247076500e+001	(-5.02145043667568e+001dB,-1.46118921250762e+002°)
8.15613834527115e+001	(-4.52255661214589e+001dB,-1.51280230649617e+002°)
8.80679560573242e+001	(-4.12308047708392e+001dB,-1.56401430668271e+002°)
9.50935915476668e+001	(-3.78841813136171e+001dB,-1.61480215947468e+002°)
1.02679698249707e+002	(-3.49945577213120e+001dB,-1.66515607313932e+002°)
1.10870987845337e+002	(-3.24451759504650e+001dB,-1.71507626300765e+002°)
1.19715738898133e+002	(-3.01595530847887e+001dB,-1.76456940197959e+002°)
1.29266081401913e+002	(-2.80849701985915e+001dB,1.78635496382557e+002°)
1.39578304029218e+002	(-2.61836626086482e+001dB,1.73768777022377e+002°)
1.50713185890575e+002	(-2.44277528461906e+001dB,1.68942331154428e+002°)
1.62736354759922e+002	(-2.27961544051488e+001dB,1.64156142341980e+002°)
1.75718673877514e+002	(-2.12725825087930e+001dB,1.59410881045096e+002°)
1.89736659610103e+002	(-1.98442218545669e+001dB,1.54707942967290e+002°)
2.04872932430016e+002	(-1.85008040944996e+001dB,1.50049392729231e+002°)
2.21216703871174e+002	(-1.72339531554413e+001dB,1.45437821927019e+002°)
2.38864302332098e+002	(-1.60367136985270e+001dB,1.40876139503001e+002°)
2.57919740824937e+002	(-1.49032100345817e+001dB,1.36367319535997e+002°)
2.78495330016767e+002	(-1.38284010634355e+001dB,1.31914135917063e+002°)
3.00712340176363e+002	(-1.28079073175526e+001dB,1.27518914206437e+002°)
3.24701715927878e+002	(-1.18378923334779e+001dB,1.23183328178545e+002°)
3.50604848024110e+002	(-1.09149843123836e+001dB,1.18908262717161e+002°)
3.78574406688116e+002	(-1.00362265200430e+001dB,1.14693756875816e+002°)
4.08775241434777e+002	(-9.19904677288166e+000dB,1.10539032327830e+002°)
4.41385352675785e+002	(-8.40123799536300e+000dB,1.06442604249496e+002°)
4.76596940834569e+002	(-7.64094335207837e+000dB,1.02402464729074e+002°)
5.14617539154536e+002	(-6.91664088678895e+000dB,9.84163234706527e+001°)
5.55671236877276e+002	(-6.22712393171203e+000dB,9.44818868904716e+001°)
6.00000000000000e+002	(-5.57147477564164e+000dB,9.05971544831072e+001°)
6.47865097396625e+002	(-4.94903020831452e+000dB,8.67607103163794e+001°)
6.99548640707899e+002	(-4.35933861435475e+000dB,8.29719875469345e+001°)
7.55355247076500e+002	(-3.80210929580291e+000dB,7.92314849595382e+001°)
8.15613834527115e+002	(-3.27715565989642e+000dB,7.55409169110505e+001°)
8.80679560573241e+002	(-2.78433478463426e+000dB,7.19032819551882e+001°)
9.50935915476667e+002	(-2.32348659426363e+000dB,6.83228409867504e+001°)
1.02679698249707e+003	(-1.89437633585334e+000dB,6.48050028506905e+001°)
1.10870987845337e+003	(-1.49664413893770e+000dB,6.13561234936734e+001°)
1.19715738898133e+003	(-1.12976508828848e+000dB,5.79832329708652e+001°)
1.29266081401913e+003	(-7.93022438718840e-001dB,5.46937117689925e+001°)
1.39578304029217e+003	(-4.85495431807262e-001dB,5.14949427759869e+001°)
1.50713185890575e+003	(-2.06061801087559e-001dB,4.83939669390392e+001°)
1.62736354759922e+003	(4.65863123281052e-002dB,4.53971688992463e+001°)
1.75718673877514e+003	(2.73915455030879e-001dB,4.25100140381412e+001°)
1.89736659610103e+003	(4.77516149640415e-001dB,3.97368513639584e+001°)
2.04872932430016e+003	(6.59063860806052e-001dB,3.70807887722592e+001°)
2.21216703871174e+003	(8.20278985070182e-001dB,3.45436397094748e+001°)
2.38864302332098e+003	(9.62888724125337e-001dB,3.21259341490981e+001°)
2.57919740824937e+003	(1.08859300058615e+000dB,2.98269826277979e+001°)
2.78495330016767e+003	(1.19903580099204e+000dB,2.76449800019194e+001°)
3.00712340176363e+003	(1.29578259897970e+000dB,2.55771353337641e+001°)
3.24701715927878e+003	(1.38030390069944e+000dB,2.36198154478137e+001°)
3.50604848024110e+003	(1.45396450224084e+000dB,2.17686916875326e+001°)
3.78574406688116e+003	(1.51801775885585e+000dB,2.00188817742000e+001°)
4.08775241434777e+003	(1.57360401900166e+000dB,1.83650810471529e+001°)
4.41385352675785e+003	(1.62175234180755e+000dB,1.68016795027013e+001°)
4.76596940834569e+003	(1.66338466080802e+000dB,1.53228628157211e+001°)
5.14617539154536e+003	(1.69932164899585e+000dB,1.39226968826574e+001°)
5.55671236877276e+003	(1.73028965571509e+000dB,1.25951963872025e+001°)
6.00000000000000e+003	(1.75692820668109e+000dB,1.13343785139668e+001°)
6.47865097396626e+003	(1.77979767277010e+000dB,1.01343032885705e+001°)
6.99548640707899e+003	(1.79938681451100e+000dB,8.98910217248861e+000°)
7.55355247076500e+003	(1.81611999451643e+000dB,7.89299654814634e+000°)
8.15613834527115e+003	(1.83036391898497e+000dB,6.84030764379193e+000°)
8.80679560573241e+003	(1.84243382298081e+000dB,5.82545930700600e+000°)
9.50935915476668e+003	(1.85259905431593e+000dB,4.84297486824559e+000°)
1.02679698249707e+004	(1.86108803967527e+000dB,3.88746916103489e+000°)
1.10870987845337e+004	(1.86809263625789e+000dB,2.95363659574565e+000°)
1.19715738898133e+004	(1.87377188458349e+000dB,2.03623602699389e+000°)
1.29266081401913e+004	(1.87825518488173e+000dB,1.13007301435727e+000°)
1.39578304029217e+004	(1.88164492199018e+000dB,2.29979954008850e-001°)
1.50713185890575e+004	(1.88401856300537e+000dB,-6.69205545043524e-001°)
1.62736354759922e+004	(1.88543024887055e+000dB,-1.57266375296761e+000°)
1.75718673877514e+004	(1.88591189624534e+000dB,-2.48561716254560e+000°)
1.89736659610103e+004	(1.88547381980384e+000dB,-3.41335592276810e+000°)
2.04872932430016e+004	(1.88410487782583e+000dB,-4.36126424303252e+000°)
2.21216703871174e+004	(1.88177213574182e+000dB,-5.33484767735776e+000°)
2.38864302332098e+004	(1.87842003323819e+000dB,-6.33976121441367e+000°)
2.57919740824936e+004	(1.87396903063184e+000dB,-7.38183810301621e+000°)
2.78495330016767e+004	(1.86831369944233e+000dB,-8.46711933318650e+000°)
3.00712340176363e+004	(1.86132021036148e+000dB,-9.60188366833534e+000°)
3.24701715927878e+004	(1.85282315908029e+000dB,-1.07926780821378e+001°)
3.50604848024110e+004	(1.84262165665366e+000dB,-1.20463483904502e+001°)
3.78574406688116e+004	(1.83047459631378e+000dB,-1.33700697790951e+001°)
4.08775241434776e+004	(1.81609499309034e+000dB,-1.47713768056127e+001°)
4.41385352675784e+004	(1.79914327672390e+000dB,-1.62581922883100e+001°)
4.76596940834569e+004	(1.77921940304525e+000dB,-1.78388542774648e+001°)
5.14617539154536e+004	(1.75585363577350e+000dB,-1.95221400179456e+001°)
5.55671236877276e+004	(1.72849584206490e+000dB,-2.13172854427447e+001°)
5.99999999999999e+004	(1.69650314508112e+000dB,-2.32339982653516e+001°)
6.47865097396625e+004	(1.65912579135261e+000dB,-2.52824621474838e+001°)
6.99548640707898e+004	(1.61549112863689e+000dB,-2.74733286941558e+001°)
7.55355247076500e+004	(1.56458566387509e+000dB,-2.98176931693717e+001°)
8.15613834527115e+004	(1.50523529783882e+000dB,-3.23270488570360e+001°)
8.80679560573241e+004	(1.43608403518620e+000dB,-3.50132139829641e+001°)
9.50935915476667e+004	(1.35557177220718e+000dB,-3.78882242120754e+001°)
1.00000000000000e+005	(1.29578727012303e+000dB,-3.98809583382639e+001°)
